     0  1  2  3  4  5  6  7  8  9  a  b  c  d  e  f    0123456789abcdef
00: XX XX XX 00 00 00 00 00 00 00 00 00 00 00 00 00    XXX.............
10: 00 00 00 00 00 00 00 00 00 00 00 00 00 00 00 00    ................
20: 00 00 00 00 00 00 00 00 00 00 00 00 00 00 00 00    ................
30: 00 00 00 00 00 00 00 00 00 00 00 00 00 00 00 00    ................
40: 00 00 00 00 00 00 00 00 00 00 00 00 00 00 00 00    ................
50: 00 00 00 00 00 00 00 00 00 00 00 00 00 00 00 00    ................
60: 00 00 00 00 00 00 00 00 00 00 00 00 00 00 00 00    ................
70: 00 00 00 00 00 00 00 00 00 00 00 00 00 00 00 00    ................
80: 8b 70 89 69 1f 51 13 06 ad 6f 3c 67 32 00 ae 8d    ?p?i?Q???o<g2.??
90: 28 d6 d0 0b 59 1b f8 ff f9 ff b4 2d e8 d1 88 13    (???Y??.?.?-????
a0: 00 4b 68 00 00 00 00 00 00 00 00 00 33 00 00 c0    .Kh.........3..?
b0: 00 54 00 00 00 00 60 02 00 01 fe ff 1f 60 03 00    .T....`?.??.?`.
c0: 00 00 00 ff 00 00 00 00 00 00 00 00 00 00 00 00    ................
d0: 60 00 00 00 00 00 00 00 00 00 00 00 00 00 00 00    `...............
e0: 00 79 01 00 11 2e 03 1e db 41 fe ff fe ff fe ff    .y?.?.???A?.?.?.
f0: fe 00 00 00 00 00 00 80 00 00 80 00 00 80 00 80    ?......?..?..?.?
